
**** 07/26/22 20:51:50 ******* PSpice Lite (March 2016) ******* ID# 10813 ****

 ** Profile: "SCHEMATIC1-bias"  [ C:\Users\Cole\Documents\4300lab8-pspicefiles\schematic1\bias.sim ] 


 ****     CIRCUIT DESCRIPTION


******************************************************************************




** Creating circuit file "bias.cir" 
** WARNING: THIS AUTOMATICALLY GENERATED FILE MAY BE OVERWRITTEN BY SUBSEQUENT SIMULATIONS

*Libraries: 
* Profile Libraries :
* Local Libraries :
* From [PSPICE NETLIST] section of C:\SPB_Data\cdssetup\OrCAD_PSpice\17.2.0\PSpice.ini file:
.lib "nomd.lib" 

*Analysis directives: 
.TRAN  0 10ms 8ms 1u 
.OPTIONS ADVCONV
.PROBE64 V(alias(*)) I(alias(*)) W(alias(*)) D(alias(*)) NOISE(alias(*)) 
.INC "..\SCHEMATIC1.net" 



**** INCLUDING SCHEMATIC1.net ****
* source 4300LAB8
V_Vsig         N14405 0  AC 80m
+SIN 0 80m 1k 0 0 0
R_Rsig         N14405 N14398  50 TC=0,0 
C_CC1         N14398 N14504  10u  TC=0,0 
R_R1         0 N14504  22k TC=0,0 
R_R2         N14504 N14500  100k TC=0,0 
V_V2         N14500 0 10Vdc
Q_Q         N14627 N14504 N14796 Q2N3904
V_V3         N14623 0 10Vdc
R_R3         N14627 N14623  4.7k TC=0,0 
R_RE1         N14800 N14796  220 TC=0,0 
R_RE2         0 N14800  1k TC=0,0 
C_CE         0 N14800  100u  TC=0,0 
C_CC2         N14627 N14964  10u  TC=0,0 
R_R6         0 N14964  51k TC=0,0 

**** RESUMING bias.cir ****
.END

**** 07/26/22 20:51:50 ******* PSpice Lite (March 2016) ******* ID# 10813 ****

 ** Profile: "SCHEMATIC1-bias"  [ C:\Users\Cole\Documents\4300lab8-pspicefiles\schematic1\bias.sim ] 


 ****     BJT MODEL PARAMETERS


******************************************************************************




               Q2N3904         
               NPN             
       LEVEL    1            
          IS    6.734000E-15 
          BF  416.4          
          NF    1            
         VAF   74.03         
         IKF     .06678      
         ISE    6.734000E-15 
          NE    1.259        
          BR     .7371       
          NR    1            
         ISS    0            
          RB   10            
          RE    0            
          RC    1            
         CJE    4.493000E-12 
         VJE     .75         
         MJE     .2593       
         CJC    3.638000E-12 
         VJC     .75         
         MJC     .3085       
        XCJC    1            
         CJS    0            
         VJS     .75         
          TF  301.200000E-12 
         XTF    2            
         VTF    4            
         ITF     .4          
          TR  239.500000E-09 
         XTB    1.5          
          KF    0            
          AF    1            
          CN    2.42         
           D     .87         


**** 07/26/22 20:51:50 ******* PSpice Lite (March 2016) ******* ID# 10813 ****

 ** Profile: "SCHEMATIC1-bias"  [ C:\Users\Cole\Documents\4300lab8-pspicefiles\schematic1\bias.sim ] 


 ****     INITIAL TRANSIENT SOLUTION       TEMPERATURE =   27.000 DEG C


******************************************************************************



 NODE   VOLTAGE     NODE   VOLTAGE     NODE   VOLTAGE     NODE   VOLTAGE


(N14398)    0.0000 (N14405)    0.0000 (N14500)   10.0000 (N14504)    1.6923     

(N14623)   10.0000 (N14627)    6.0510 (N14796)    1.0326 (N14800)     .8464     

(N14964)    0.0000 




    VOLTAGE SOURCE CURRENTS
    NAME         CURRENT

    V_Vsig       0.000E+00
    V_V2        -8.308E-05
    V_V3        -8.402E-04

    TOTAL POWER DISSIPATION   9.23E-03  WATTS



          JOB CONCLUDED

**** 07/26/22 20:51:50 ******* PSpice Lite (March 2016) ******* ID# 10813 ****

 ** Profile: "SCHEMATIC1-bias"  [ C:\Users\Cole\Documents\4300lab8-pspicefiles\schematic1\bias.sim ] 


 ****     JOB STATISTICS SUMMARY


******************************************************************************



  Total job time (using Solver 1)   =         .28
