
**** 07/19/22 23:49:31 ******* PSpice Lite (March 2016) ******* ID# 10813 ****

 ** Profile: "SCHEMATIC1-sim1"  [ C:\Users\Cole\Documents\4300Lab7_CMatthews-PSpiceFiles\SCHEMATIC1\sim1.sim ] 


 ****     CIRCUIT DESCRIPTION


******************************************************************************




** Creating circuit file "sim1.cir" 
** WARNING: THIS AUTOMATICALLY GENERATED FILE MAY BE OVERWRITTEN BY SUBSEQUENT SIMULATIONS

*Libraries: 
* Profile Libraries :
* Local Libraries :
.LIB "../../../4300lab7_cmatthews-pspicefiles/4300lab7_cmatthews.lib" 
* From [PSPICE NETLIST] section of C:\SPB_Data\cdssetup\OrCAD_PSpice\17.2.0\PSpice.ini file:
.lib "nomd.lib" 

*Analysis directives: 
.TRAN  0 1000ns 0 
.OPTIONS ADVCONV
.PROBE64 V(alias(*)) I(alias(*)) W(alias(*)) D(alias(*)) NOISE(alias(*)) 
.INC "..\SCHEMATIC1.net" 



**** INCLUDING SCHEMATIC1.net ****
* source 4300LAB7_CMATTHEWS
R_RG1         N14492 N14655  1200 TC=0,0 
R_RG2         0 N14492  680 TC=0,0 
R_RD         N14768 N14659  220 TC=0,0 
R_RS         0 N14484  1200 TC=0,0 
M_M1         N14768 N14492 N14484 N14484 MM
V_V1         N14659 0 15Vdc
V_V2         N14655 0 15Vdc

**** RESUMING sim1.cir ****
.END

**** 07/19/22 23:49:31 ******* PSpice Lite (March 2016) ******* ID# 10813 ****

 ** Profile: "SCHEMATIC1-sim1"  [ C:\Users\Cole\Documents\4300Lab7_CMatthews-PSpiceFiles\SCHEMATIC1\sim1.sim ] 


 ****     MOSFET MODEL PARAMETERS


******************************************************************************




               MM              
               NMOS            
       LEVEL    1            
           L  100.000000E-06 
           W  100.000000E-06 
         VTO    2.236        
          KP     .093217     
       GAMMA    0            
         PHI     .6          
      LAMBDA    0            
          IS    0            
          JS    0            
          PB     .8          
        PBSW     .8          
          CJ    0            
        CJSW    0            
        CGSO  179.115000E-09 
        CGDO   10.724000E-12 
        CGBO    0            
         TOX    0            
          XJ    0            
       UCRIT   10.000000E+03 
      DIOMOD    1            
         VFB    0            
        LETA    0            
        WETA    0            
          U0    0            
        TEMP    0            
         VDD    5            
       XPART    0            


**** 07/19/22 23:49:31 ******* PSpice Lite (March 2016) ******* ID# 10813 ****

 ** Profile: "SCHEMATIC1-sim1"  [ C:\Users\Cole\Documents\4300Lab7_CMatthews-PSpiceFiles\SCHEMATIC1\sim1.sim ] 


 ****     INITIAL TRANSIENT SOLUTION       TEMPERATURE =   27.000 DEG C


******************************************************************************



 NODE   VOLTAGE     NODE   VOLTAGE     NODE   VOLTAGE     NODE   VOLTAGE


(N14484)    2.9595 (N14492)    5.4255 (N14655)   15.0000 (N14659)   15.0000     

(N14768)   14.4570 




    VOLTAGE SOURCE CURRENTS
    NAME         CURRENT

    V_V1        -2.466E-03
    V_V2        -7.979E-03

    TOTAL POWER DISSIPATION   1.57E-01  WATTS



          JOB CONCLUDED

**** 07/19/22 23:49:31 ******* PSpice Lite (March 2016) ******* ID# 10813 ****

 ** Profile: "SCHEMATIC1-sim1"  [ C:\Users\Cole\Documents\4300Lab7_CMatthews-PSpiceFiles\SCHEMATIC1\sim1.sim ] 


 ****     JOB STATISTICS SUMMARY


******************************************************************************



  Total job time (using Solver 1)   =         .02
