
**** 05/31/22 21:17:14 ****** PSpice Lite (October 2012) ****** ID# 10813 ****

 ** Profile: "SCHEMATIC1-truthtabletest"  [ H:\4300prelab2cole-pspicefiles\schematic1\truthtabletest.sim ] 


 ****     CIRCUIT DESCRIPTION


******************************************************************************




** Creating circuit file "truthtabletest.cir" 
** WARNING: THIS AUTOMATICALLY GENERATED FILE MAY BE OVERWRITTEN BY SUBSEQUENT SIMULATIONS

*Libraries: 
* Profile Libraries :
* Local Libraries :
* From [PSPICE NETLIST] section of C:\SPB_Data\cdssetup\OrCAD_PSpice/16.6.0/PSpice.ini file:
.lib "nomd.lib" 

*Analysis directives: 
.TRAN  0 0.001 0 0.001 
.OPTIONS ADVCONV
.PROBE64 V(alias(*)) I(alias(*)) W(alias(*)) D(alias(*)) NOISE(alias(*)) 
.INC "..\SCHEMATIC1.net" 



**** INCLUDING SCHEMATIC1.net ****
* source 4300PRELAB2COLE
R_R1         0 VOUT  1k TC=0,0 
R_R2         N00189 N00257  1k TC=0,0 
D_D1         N00189 N00220 Dbreak 
D_D2         N00189 N00224 Dbreak 
D_D3         N00189 VOUT Dbreak 
D_D4         N00228 VOUT Dbreak 
V_V1         N00257 0 5Vdc
V_Vc         N00228 0 5Vdc
V_Vb         N00224 0 5Vdc
V_Va         N00220 0 5Vdc

**** RESUMING truthtabletest.cir ****
.END

**** 05/31/22 21:17:14 ****** PSpice Lite (October 2012) ****** ID# 10813 ****

 ** Profile: "SCHEMATIC1-truthtabletest"  [ H:\4300prelab2cole-pspicefiles\schematic1\truthtabletest.sim ] 


 ****     Diode MODEL PARAMETERS


******************************************************************************




               Dbreak          
          IS   10.000000E-15 
          RS     .1          
         CJO  100.000000E-15 


**** 05/31/22 21:17:14 ****** PSpice Lite (October 2012) ****** ID# 10813 ****

 ** Profile: "SCHEMATIC1-truthtabletest"  [ H:\4300prelab2cole-pspicefiles\schematic1\truthtabletest.sim ] 


 ****     INITIAL TRANSIENT SOLUTION       TEMPERATURE =   27.000 DEG C


******************************************************************************



 NODE   VOLTAGE     NODE   VOLTAGE     NODE   VOLTAGE     NODE   VOLTAGE


( VOUT)    4.3073  (N00189)    4.9023 (N00220)    5.0000 (N00224)    5.0000     

(N00228)    5.0000 (N00257)    5.0000 




    VOLTAGE SOURCE CURRENTS
    NAME         CURRENT

    V_V1        -9.773E-05
    V_Vc        -4.210E-03
    V_Vb        -1.075E-13
    V_Va        -1.075E-13

    TOTAL POWER DISSIPATION   2.15E-02  WATTS



          JOB CONCLUDED

**** 05/31/22 21:17:14 ****** PSpice Lite (October 2012) ****** ID# 10813 ****

 ** Profile: "SCHEMATIC1-truthtabletest"  [ H:\4300prelab2cole-pspicefiles\schematic1\truthtabletest.sim ] 


 ****     JOB STATISTICS SUMMARY


******************************************************************************



  Total job time (using Solver 1)   =         .06
